<Qucs Dataset 0.0.20>
<indep time 11>
  +0.00000000000000000000e+00
  +1.00000000000000004792e-04
  +2.00000000000000009584e-04
  +3.00000000000000027929e-04
  +4.00000000000000019169e-04
  +5.00000000000000010408e-04
  +6.00000000000000055858e-04
  +6.99999999999999992888e-04
  +8.00000000000000038337e-04
  +9.00000000000000083787e-04
  +1.00000000000000002082e-03
</indep>
<dep V1.It time>
  -1.07863486356053375759e-01
  -1.07863486356053375759e-01
  -1.07863486356053375759e-01
  -1.07863486356053375759e-01
  -1.07863486356053375759e-01
  -1.07863486356053375759e-01
  -1.07863486356053375759e-01
  -1.07863486356053375759e-01
  -1.07863486356053375759e-01
  -1.07863486356053375759e-01
  -1.07863486356053375759e-01
</dep>
<dep in.Vt time>
  +2.13651364394662390822e+00
  +2.13651364394662390822e+00
  +2.13651364394662435231e+00
  +2.13651364394662390822e+00
  +2.13651364394662435231e+00
  +2.13651364394662390822e+00
  +2.13651364394662390822e+00
  +2.13651364394662435231e+00
  +2.13651364394662435231e+00
  +2.13651364394662435231e+00
  +2.13651364394662435231e+00
</dep>
<dep _net1.Vt time>
  +1.02514438229862525631e+00
  +1.02514438229862570040e+00
  +1.02514438229862570040e+00
  +1.02514438229862570040e+00
  +1.02514438229862570040e+00
  +1.02514438229862570040e+00
  +1.02514438229862570040e+00
  +1.02514438229862570040e+00
  +1.02514438229862570040e+00
  +1.02514438229862570040e+00
  +1.02514438229862570040e+00
</dep>
<dep _net0.Vt time>
  +1.10000000000000000000e+02
  +1.10000000000000000000e+02
  +1.10000000000000000000e+02
  +1.10000000000000000000e+02
  +1.10000000000000000000e+02
  +1.10000000000000000000e+02
  +1.10000000000000000000e+02
  +1.10000000000000000000e+02
  +1.10000000000000000000e+02
  +1.10000000000000000000e+02
  +1.10000000000000000000e+02
</dep>
<indep V1.I 1>
  -1.07863486356053375759e-01
</indep>
<indep in.V 1>
  +2.13651364394662390822e+00
</indep>
<indep _net1.V 1>
  +1.02514438229862547836e+00
</indep>
<indep _net0.V 1>
  +1.10000000000000000000e+02
</indep>
